HEADER
"PSFversion" "1.00"
"simulator" "spectre"
"version" "20.1.0.404.isr13"
"date" "5:57:51 PM, Mon May 9, 2022"
"design" "// Generated for: spectre"
"analysis type" "tran"
"analysis name" "tran"
"analysis description" "Transient Analysis `tran': time = (0 s -> 10 us)"
"xVecSorted" "ascending"
"tolerance.relative" 0.00100000
"start" 0.00000
"outputstart" 0.00000
"stop" 1.00000e-05
"step" 1.00000e-08
"istep" 0.00100000
"maxstep" 2.00000e-07
"ic" "all"
"useprevic" "no"
"skipdc" "no"
"reltol" 0.00100000
"abstol(V)" 1.00000e-06
"abstol(I)" 1.00000e-12
"temp" 27.0000
"tnom" 27.0000
"tempeffects" "all"
"errpreset" "moderate"
"method" "traponly"
"lteratio" 3.50000
"relref" "sigglobal"
"cmin" 0.00000
"gmin" 1.00000e-12
TYPE
"sweep" FLOAT DOUBLE PROP(
"key" "sweep"
)
"LogicV" FLOAT DOUBLE PROP(
"key" "node"
)
"Real" FLOAT DOUBLE PROP(
"units" ""
"key" "node"
"tolerance" 1.00000e-06
)
"Tau" FLOAT DOUBLE PROP(
"units" "N*m"
"key" "node"
"tolerance" 1.00000e-06
)
"Alpha" FLOAT DOUBLE PROP(
"units" "rads/s^2"
"key" "node"
"tolerance" 1.00000e-06
)
"Omega" FLOAT DOUBLE PROP(
"units" "rads/s"
"key" "node"
"tolerance" 1.00000e-06
)
"Theta" FLOAT DOUBLE PROP(
"units" "rads"
"key" "node"
"tolerance" 1.00000e-06
)
"F" FLOAT DOUBLE PROP(
"units" "N"
"key" "node"
"tolerance" 1.00000e-06
)
"Imp" FLOAT DOUBLE PROP(
"units" "m/s^3"
"key" "node"
"tolerance" 1.00000e-06
)
"Acc" FLOAT DOUBLE PROP(
"units" "m/s^2"
"key" "node"
"tolerance" 1.00000e-06
)
"Vel" FLOAT DOUBLE PROP(
"units" "m/s"
"key" "node"
"tolerance" 1.00000e-06
)
"Pos" FLOAT DOUBLE PROP(
"units" "m"
"key" "node"
"tolerance" 1.00000e-06
)
"Phi" FLOAT DOUBLE PROP(
"units" "Wb"
"key" "node"
"tolerance" 1.00000e-09
)
"V" FLOAT DOUBLE PROP(
"units" "V"
"key" "node"
"tolerance" 1.00000e-06
)
"I" FLOAT DOUBLE PROP(
"units" "A"
"key" "branch"
"tolerance" 1.00000e-12
)
"MMF" FLOAT DOUBLE PROP(
"units" "A*turn"
"key" "node"
"tolerance" 1.00000e-12
)
"Wb" FLOAT DOUBLE PROP(
"units" "Wb"
"key" "node"
"tolerance" 1.00000e-09
)
"Temp" FLOAT DOUBLE PROP(
"units" "C"
"key" "node"
"tolerance" 0.000100000
)
"Pwr" FLOAT DOUBLE PROP(
"units" "W"
"key" "node"
"tolerance" 1.00000e-09
)
"U" FLOAT DOUBLE PROP(
"units" ""
"key" "node"
"tolerance" 1.00000e-06
)
"V/Sec" FLOAT DOUBLE PROP(
"units" "V/s"
"key" "node"
"tolerance" 0.000100000
)
"I/Sec" FLOAT DOUBLE PROP(
"units" "A/s"
"key" "node"
"tolerance" 1.00000e-06
)
"1/Sec" FLOAT DOUBLE PROP(
"units" "1/s"
"key" "node"
"tolerance" 0.000100000
)
"HOD" FLOAT DOUBLE PROP(
"units" ""
"key" "node"
"tolerance" 0.0100000
)
"Q" FLOAT DOUBLE PROP(
"units" "coul"
"key" "node"
"tolerance" 1.00000e-14
)
SWEEP
"time" "sweep" PROP(
"sweep_direction" 0
"units" "s"
"plot" 0
"grid" 1
)
TRACE
"VD:p" "I" PROP(
"units" "A"
)
"net1" "V"
"net_vg" "V"
"net_vs" "V"
"net_vd" "V"
"VG:p" "I"
"VS:p" "I"
VALUE
"time" 0.000000000000000e+00
"VD:p" 0.000000000000000e+00
"net1" 0.000000000000000e+00
"net_vg" 1.500000000000000e+00
"net_vs" 0.000000000000000e+00
"net_vd" 0.000000000000000e+00
"VG:p" 0.000000000000000e+00
"VS:p" 0.000000000000000e+00
"time" 1.000000000000000e-09
"VD:p" -7.428170914100899e-07
"net1" 1.732966125170161e-05
"net_vg" 1.500000000000000e+00
"net_vs" 0.000000000000000e+00
"net_vd" 7.500000000000001e-03
"VG:p" 1.969096360705778e-09
"VS:p" 7.384749500206819e-07
"time" 2.000000000000000e-09
"VD:p" -1.485847253354358e-06
"net1" 3.477884670550074e-05
"net_vg" 1.500000000000000e+00
"net_vs" 0.000000000000000e+00
"net_vd" 1.500000000000000e-02
"VG:p" 1.982673396088832e-09
"VS:p" 1.481475202199297e-06
"time" 3.000000000000000e-09
"VD:p" -2.229326210460290e-06
"net1" 5.223946996185299e-05
"net_vg" 1.500000000000000e+00
"net_vs" 0.000000000000000e+00
"net_vd" 2.250000000000000e-02
"VG:p" 1.985257764487251e-09
"VS:p" 2.224948498438847e-06
"time" 4.000000000000000e-09
"VD:p" -2.973478599614731e-06
"net1" 6.971650516342229e-05
"net_vg" 1.500000000000000e+00
"net_vs" 0.000000000000000e+00
"net_vd" 3.000000000000000e-02
"VG:p" 1.986388044506964e-09
"VS:p" 2.969098395291776e-06
"time" 5.000000000000000e-09
"VD:p" -3.718529249352252e-06
"net1" 8.721500076571176e-05
"net_vg" 1.500000000000000e+00
"net_vs" 0.000000000000000e+00
"net_vd" 3.750000000000000e-02
"VG:p" 1.990119593012995e-09
"VS:p" 3.714140854619744e-06
"time" 6.000000000000000e-09
"VD:p" -4.464703207969628e-06
"net1" 1.047404718754705e-04
"net_vg" 1.500000000000000e+00
"net_vs" 0.000000000000000e+00
"net_vd" 4.499999999999999e-02
"VG:p" 1.992503138986461e-09
"VS:p" 4.460309557520222e-06
"time" 7.000000000000000e-09
"VD:p" -5.212225900466558e-06
"net1" 1.222979941440272e-04
"net_vg" 1.500000000000000e+00
"net_vs" 0.000000000000000e+00
"net_vd" 5.249999999999999e-02
"VG:p" 1.997388013454800e-09
"VS:p" 5.207821516605855e-06
"time" 8.000000000000000e-09
"VD:p" -5.961323107008180e-06
"net1" 1.398930894459080e-04
"net_vg" 1.500000000000000e+00
"net_vs" 0.000000000000000e+00
"net_vd" 6.000000000000000e-02
"VG:p" 2.001026324418845e-09
"VS:p" 5.956910700802548e-06
"time" 9.000000000000001e-09
"VD:p" -6.712221115712835e-06
"net1" 1.575308663037702e-04
"net_vg" 1.500000000000000e+00
"net_vs" 0.000000000000000e+00
"net_vd" 6.750000000000000e-02
"VG:p" 2.007071959328768e-09
"VS:p" 6.707795416793699e-06
"time" 1.000000000000000e-08
"VD:p" -7.465146705541026e-06
"net1" 1.752168602447373e-04
"net_vg" 1.500000000000000e+00
"net_vs" 0.000000000000000e+00
"net_vd" 7.500000000000000e-02
"VG:p" 2.011968098760526e-09
"VS:p" 7.460710210988523e-06
"time" 1.100000000000000e-08
"VD:p" -8.220327295307685e-06
"net1" 1.929562183884949e-04
"net_vg" 1.500000000000000e+00
"net_vs" 0.000000000000000e+00
"net_vd" 8.250000000000000e-02
"VG:p" 2.019183229450527e-09
"VS:p" 8.215874929572784e-06
"time" 1.200000000000000e-08
"VD:p" -8.977990930775470e-06
"net1" 2.107544968007107e-04
"net_vg" 1.500000000000000e+00
"net_vs" 0.000000000000000e+00
"net_vd" 9.000000000000002e-02
"VG:p" 2.025341825116345e-09
"VS:p" 8.973524986011879e-06
"time" 1.300000000000000e-08
"VD:p" -9.738366430245942e-06
"net1" 2.286168869859705e-04
"net_vg" 1.500000000000000e+00
"net_vs" 0.000000000000000e+00
"net_vd" 9.750000000000002e-02
"VG:p" 2.033736500768596e-09
"VS:p" 9.733882013767856e-06
"time" 1.400000000000000e-08
"VD:p" -1.050168337565819e-05
"net1" 2.465489724460879e-04
"net_vg" 1.500000000000000e+00
"net_vs" 0.000000000000000e+00
"net_vd" 1.050000000000000e-01
"VG:p" 2.041163747648414e-09
"VS:p" 1.049718258319520e-05
"time" 1.500000000000001e-08
"VD:p" -1.126817225509151e-05
"net1" 2.645559949283174e-04
"net_vg" 1.500000000000000e+00
"net_vs" 0.000000000000000e+00
"net_vd" 1.125000000000000e-01
"VG:p" 2.050749347781131e-09
"VS:p" 1.126365036538921e-05
"time" 1.600000000000000e-08
"VD:p" -1.203806445769228e-05
"net1" 2.826435722835955e-04
"net_vg" 1.500000000000000e+00
"net_vs" 0.000000000000000e+00
"net_vd" 1.200000000000000e-01
"VG:p" 2.059453009544134e-09
"VS:p" 1.203352337803111e-05
"time" 1.700000000000000e-08
"VD:p" -1.281159241339959e-05
"net1" 3.008170024370308e-04
"net_vg" 1.500000000000000e+00
"net_vs" 0.000000000000000e+00
"net_vd" 1.275000000000000e-01
"VG:p" 2.070242261571173e-09
"VS:p" 1.280702758301161e-05
"time" 1.800000000000000e-08
"VD:p" -1.358898959154394e-05
"net1" 3.190819445280298e-04
"net_vg" 1.500000000000000e+00
"net_vs" 0.000000000000000e+00
"net_vd" 1.350000000000000e-01
"VG:p" 2.080231677871067e-09
"VS:p" 1.358440273673321e-05
"time" 1.900000000000000e-08
"VD:p" -1.437049063808851e-05
"net1" 3.374437586747846e-04
"net_vg" 1.500000000000000e+00
"net_vs" 0.000000000000000e+00
"net_vd" 1.425000000000000e-01
"VG:p" 2.092238673847949e-09
"VS:p" 1.436587734809519e-05
"time" 2.000000000000000e-08
"VD:p" -1.515633137776172e-05
"net1" 3.559081522789963e-04
"net_vg" 1.500000000000000e+00
"net_vs" 0.000000000000000e+00
"net_vd" 1.500000000000000e-01
"VG:p" 2.103524769158547e-09
"VS:p" 1.515169320490259e-05
"time" 2.100000000000000e-08
"VD:p" -1.594674894908957e-05
"net1" 3.744805537539268e-04
"net_vg" 1.500000000000000e+00
"net_vs" 0.000000000000000e+00
"net_vd" 1.575000000000000e-01
"VG:p" 2.116764986606229e-09
"VS:p" 1.594208162257339e-05
"time" 2.200000000000000e-08
"VD:p" -1.674198180994113e-05
"net1" 3.931667257815154e-04
"net_vg" 1.500000000000000e+00
"net_vs" 0.000000000000000e+00
"net_vd" 1.650000000000000e-01
"VG:p" 2.129360276634001e-09
"VS:p" 1.673728671462963e-05
"time" 2.300000000000000e-08
"VD:p" -1.754226987061212e-05
"net1" 4.119721712642235e-04
"net_vg" 1.500000000000000e+00
"net_vs" 0.000000000000000e+00
"net_vd" 1.725000000000000e-01
"VG:p" 2.143850598713399e-09
"VS:p" 1.753754286605529e-05
"time" 2.400000000000000e-08
"VD:p" -1.834785450267781e-05
"net1" 4.309027152324279e-04
"net_vg" 1.500000000000000e+00
"net_vs" 0.000000000000000e+00
"net_vd" 1.799999999999999e-01
"VG:p" 2.157769204554517e-09
"VS:p" 1.834309681237622e-05
"time" 2.500000000000000e-08
"VD:p" -1.915897867037364e-05
"net1" 4.499639413718297e-04
"net_vg" 1.500000000000000e+00
"net_vs" 0.000000000000000e+00
"net_vd" 1.874999999999999e-01
"VG:p" 2.173527942661938e-09
"VS:p" 1.915418627498006e-05
"time" 2.599999999999999e-08
"VD:p" -1.997588694266484e-05
"net1" 4.691617441889030e-04
"net_vg" 1.500000000000000e+00
"net_vs" 0.000000000000000e+00
"net_vd" 1.950000000000000e-01
"VG:p" 2.188785603381260e-09
"VS:p" 1.997106090999518e-05
"time" 2.699999999999999e-08
"VD:p" -2.079882562315645e-05
"net1" 4.885017945518482e-04
"net_vg" 1.500000000000000e+00
"net_vs" 0.000000000000000e+00
"net_vd" 2.024999999999999e-01
"VG:p" 2.205832520331971e-09
"VS:p" 2.079396204609493e-05
"time" 2.799999999999999e-08
"VD:p" -2.162804276530273e-05
"net1" 5.079900636385490e-04
"net_vg" 1.500000000000000e+00
"net_vs" 0.000000000000000e+00
"net_vd" 2.099999999999999e-01
"VG:p" 2.222446607496250e-09
"VS:p" 2.162314256125695e-05
"time" 2.899999999999999e-08
"VD:p" -2.246378830106692e-05
"net1" 5.276323160100019e-04
"net_vg" 1.500000000000000e+00
"net_vs" 0.000000000000000e+00
"net_vd" 2.174999999999999e-01
"VG:p" 2.240802943439016e-09
"VS:p" 2.245884766662548e-05
"time" 2.999999999999999e-08
"VD:p" -2.330631405920550e-05
"net1" 5.474346067888071e-04
"net_vg" 1.500000000000000e+00
"net_vs" 0.000000000000000e+00
"net_vd" 2.249999999999999e-01
"VG:p" 2.258792478407847e-09
"VS:p" 2.330133376626362e-05
"time" 3.099999999999999e-08
"VD:p" -2.415587389288777e-05
"net1" 5.674028008556632e-04
"net_vg" 1.500000000000000e+00
"net_vs" 0.000000000000000e+00
"net_vd" 2.324999999999999e-01
"VG:p" 2.278480976519651e-09
"VS:p" 2.415085023353392e-05
"time" 3.200000000000000e-08
"VD:p" -2.501272370100118e-05
"net1" 5.875430446354169e-04
"net_vg" 1.500000000000000e+00
"net_vs" 0.000000000000000e+00
"net_vd" 2.399999999999999e-01
"VG:p" 2.297866650545472e-09
"VS:p" 2.500765730614828e-05
"time" 3.300000000000000e-08
"VD:p" -2.587712155493066e-05
"net1" 6.078613100811974e-04
"net_vg" 1.500000000000000e+00
"net_vs" 0.000000000000000e+00
"net_vd" 2.475000000000000e-01
"VG:p" 2.318911585573490e-09
"VS:p" 2.587200880426902e-05
"time" 3.400000000000000e-08
"VD:p" -2.674932772284204e-05
"net1" 6.283638423716329e-04
"net_vg" 1.500000000000000e+00
"net_vs" 0.000000000000000e+00
"net_vd" 2.550000000000000e-01
"VG:p" 2.339715779120691e-09
"VS:p" 2.674416911048194e-05
"time" 3.500000000000000e-08
"VD:p" -2.762960479581227e-05
"net1" 6.490567274148169e-04
"net_vg" 1.500000000000000e+00
"net_vs" 0.000000000000000e+00
"net_vd" 2.625000000000000e-01
"VG:p" 2.362142986963361e-09
"VS:p" 2.762439678143194e-05
"time" 3.600000000000000e-08
"VD:p" -2.851821771505742e-05
"net1" 6.699463166964492e-04
"net_vg" 1.500000000000000e+00
"net_vs" 0.000000000000000e+00
"net_vd" 2.700000000000000e-01
"VG:p" 2.384389793441322e-09
"VS:p" 2.851296065980961e-05
"time" 3.700000000000001e-08
"VD:p" -2.941543389759652e-05
"net1" 6.910388171014578e-04
"net_vg" 1.500000000000000e+00
"net_vs" 0.000000000000000e+00
"net_vd" 2.775000000000000e-01
"VG:p" 2.408226702344356e-09
"VS:p" 2.941012433380060e-05
"time" 3.800000000000001e-08
"VD:p" -3.032152326640003e-05
"net1" 7.123406940867170e-04
"net_vg" 1.500000000000000e+00
"net_vs" 0.000000000000000e+00
"net_vd" 2.850000000000000e-01
"VG:p" 2.431941954237919e-09
"VS:p" 3.031616142577462e-05
"time" 3.900000000000001e-08
"VD:p" -3.123675837576274e-05
"net1" 7.338582826796298e-04
"net_vg" 1.500000000000000e+00
"net_vs" 0.000000000000000e+00
"net_vd" 2.925000000000000e-01
"VG:p" 2.457217614858962e-09
"VS:p" 3.123134085617398e-05
"time" 4.000000000000001e-08
"VD:p" -3.216141444435646e-05
"net1" 7.555981700923317e-04
"net_vg" 1.500000000000000e+00
"net_vs" 0.000000000000000e+00
"net_vd" 3.000000000000001e-01
"VG:p" 2.482428909525252e-09
"VS:p" 3.215594135130181e-05
"time" 4.100000000000002e-08
"VD:p" -3.309576948048084e-05
"net1" 7.775668268131194e-04
"net_vg" 1.500000000000000e+00
"net_vs" 0.000000000000000e+00
"net_vd" 3.075000000000001e-01
"VG:p" 2.509174032735276e-09
"VS:p" 3.309023747051231e-05
"time" 4.200000000000002e-08
"VD:p" -3.404010431801186e-05
"net1" 7.997709697214617e-04
"net_vg" 1.500000000000000e+00
"net_vs" 0.000000000000000e+00
"net_vd" 3.150000000000001e-01
"VG:p" 2.535910760472279e-09
"VS:p" 3.403451337332265e-05
"time" 4.300000000000002e-08
"VD:p" -3.499470274169337e-05
"net1" 8.222172122443330e-04
"net_vg" 1.500000000000000e+00
"net_vs" 0.000000000000000e+00
"net_vd" 3.225000000000001e-01
"VG:p" 2.564157752161696e-09
"VS:p" 3.498904957087912e-05
"time" 4.400000000000002e-08
"VD:p" -3.595985152597998e-05
"net1" 8.449124089776379e-04
"net_vg" 1.500000000000000e+00
"net_vs" 0.000000000000000e+00
"net_vd" 3.300000000000001e-01
"VG:p" 2.592451127125193e-09
"VS:p" 3.595413599056184e-05
"time" 4.500000000000003e-08
"VD:p" -3.693584056052642e-05
"net1" 8.678633239321006e-04
"net_vg" 1.500000000000000e+00
"net_vs" 0.000000000000000e+00
"net_vd" 3.375000000000002e-01
"VG:p" 2.622234125244600e-09
"VS:p" 3.693005941470415e-05
"time" 4.600000000000003e-08
"VD:p" -3.792296289193039e-05
"net1" 8.910769576146265e-04
"net_vg" 1.500000000000000e+00
"net_vs" 0.000000000000000e+00
"net_vd" 3.450000000000002e-01
"VG:p" 2.652117219824497e-09
"VS:p" 3.791711587890888e-05
"time" 4.700000000000003e-08
"VD:p" -3.892151484957148e-05
"net1" 9.145602324403657e-04
"net_vg" 1.500000000000000e+00
"net_vs" 0.000000000000000e+00
"net_vd" 3.525000000000002e-01
"VG:p" 2.683472132847476e-09
"VS:p" 3.891559876290637e-05
"time" 4.800000000000003e-08
"VD:p" -3.993179609026618e-05
"net1" 9.383203031759093e-04
"net_vg" 1.500000000000000e+00
"net_vs" 0.000000000000000e+00
"net_vd" 3.600000000000002e-01
"VG:p" 2.714979911463835e-09
"VS:p" 3.992581055693760e-05
"time" 4.900000000000004e-08
"VD:p" -4.095410972460296e-05
"net1" 9.623642586444435e-04
"net_vg" 1.500000000000000e+00
"net_vs" 0.000000000000000e+00
"net_vd" 3.675000000000003e-01
"VG:p" 2.747944462103093e-09
"VS:p" 4.094805157144641e-05
"time" 5.000000000000004e-08
"VD:p" -4.198876236452731e-05
"net1" 9.866994163861623e-04
"net_vg" 1.500000000000000e+00
"net_vs" 0.000000000000000e+00
"net_vd" 3.750000000000002e-01
"VG:p" 2.781113816652087e-09
"VS:p" 4.198263110413699e-05
"time" 5.100000000000004e-08
"VD:p" -4.303606425031654e-05
"net1" 1.011333039824117e-03
"net_vg" 1.500000000000000e+00
"net_vs" 0.000000000000000e+00
"net_vd" 3.825000000000002e-01
"VG:p" 2.815727582710701e-09
"VS:p" 4.302985673689401e-05
"time" 5.200000000000004e-08
"VD:p" -4.409632930111676e-05
"net1" 1.036272617959950e-03
"net_vg" 1.500000000000000e+00
"net_vs" 0.000000000000000e+00
"net_vd" 3.900000000000003e-01
"VG:p" 2.850597373562716e-09
"VS:p" 4.409004493446025e-05
"time" 5.300000000000004e-08
"VD:p" -4.516987524269709e-05
"net1" 1.061525597209330e-03
"net_vg" 1.500000000000000e+00
"net_vs" 0.000000000000000e+00
"net_vd" 3.975000000000003e-01
"VG:p" 2.886901832754377e-09
"VS:p" 4.516351089861066e-05
"time" 5.400000000000005e-08
"VD:p" -4.625702366096692e-05
"net1" 1.087099646903652e-03
"net_vg" 1.500000000000000e+00
"net_vs" 0.000000000000000e+00
"net_vd" 4.050000000000004e-01
"VG:p" 2.923512928986726e-09
"VS:p" 4.625057862780527e-05
"time" 5.500000000000005e-08
"VD:p" -4.735810013064470e-05
"net1" 1.113002405050434e-03
"net_vg" 1.500000000000000e+00
"net_vs" 0.000000000000000e+00
"net_vd" 4.125000000000003e-01
"VG:p" 2.961551506524489e-09
"VS:p" 4.735157130018704e-05
"time" 5.600000000000005e-08
"VD:p" -4.847343427178790e-05
"net1" 1.139241730373167e-03
"net_vg" 1.500000000000000e+00
"net_vs" 0.000000000000000e+00
"net_vd" 4.200000000000004e-01
"VG:p" 2.999946828075693e-09
"VS:p" 4.846682082206782e-05
"time" 5.700000000000005e-08
"VD:p" -4.960335987950976e-05
"net1" 1.165825461284622e-03
"net_vg" 1.500000000000000e+00
"net_vs" 0.000000000000000e+00
"net_vd" 4.275000000000004e-01
"VG:p" 3.039764944236537e-09
"VS:p" 4.959665871277930e-05
"time" 5.800000000000006e-08
"VD:p" -5.074821498355770e-05
"net1" 1.192761655164252e-03
"net_vg" 1.500000000000000e+00
"net_vs" 0.000000000000000e+00
"net_vd" 4.350000000000003e-01
"VG:p" 3.079989509236720e-09
"VS:p" 5.074142516842631e-05
"time" 5.900000000000006e-08
"VD:p" -5.190834197920862e-05
"net1" 1.220058359868821e-03
"net_vg" 1.500000000000000e+00
"net_vs" 0.000000000000000e+00
"net_vd" 4.425000000000004e-01
"VG:p" 3.121634629523993e-09
"VS:p" 5.190146042301475e-05
"time" 6.000000000000006e-08
"VD:p" -5.308408768993607e-05
"net1" 1.247723840907342e-03
"net_vg" 1.500000000000000e+00
"net_vs" 0.000000000000000e+00
"net_vd" 4.500000000000004e-01
"VG:p" 3.163735599379868e-09
"VS:p" 5.307711335254604e-05
"time" 6.100000000000006e-08
"VD:p" -5.427580349961135e-05
"net1" 1.275766364852832e-03
"net_vg" 1.500000000000000e+00
"net_vs" 0.000000000000000e+00
"net_vd" 4.575000000000004e-01
"VG:p" 3.207257287752763e-09
"VS:p" 5.426873328816473e-05
"time" 6.200000000000005e-08
"VD:p" -5.548384541830383e-05
"net1" 1.304194415038681e-03
"net_vg" 1.500000000000000e+00
"net_vs" 0.000000000000000e+00
"net_vd" 4.650000000000004e-01
"VG:p" 3.251284017876843e-09
"VS:p" 5.547667818439479e-05
"time" 6.300000000000005e-08
"VD:p" -5.670857421591240e-05
"net1" 1.333016486268475e-03
"net_vg" 1.500000000000000e+00
"net_vs" 0.000000000000000e+00
"net_vd" 4.725000000000003e-01
"VG:p" 3.296733990832828e-09
"VS:p" 5.670130686128823e-05
"time" 6.400000000000004e-08
"VD:p" -5.795035549114699e-05
"net1" 1.362241289625826e-03
"net_vg" 1.500000000000000e+00
"net_vs" 0.000000000000000e+00
"net_vd" 4.800000000000003e-01
"VG:p" 3.342738082433655e-09
"VS:p" 5.794298675939630e-05
"time" 6.500000000000004e-08
"VD:p" -5.920955980671276e-05
"net1" 1.391877557909598e-03
"net_vg" 1.500000000000000e+00
"net_vs" 0.000000000000000e+00
"net_vd" 4.875000000000003e-01
"VG:p" 3.390170264832830e-09
"VS:p" 5.920208658908081e-05
"time" 6.600000000000004e-08
"VD:p" -6.048656276152342e-05
"net1" 1.421934240120678e-03
"net_vg" 1.500000000000000e+00
"net_vs" 0.000000000000000e+00
"net_vd" 4.950000000000002e-01
"VG:p" 3.438205618676703e-09
"VS:p" 6.047898369365823e-05
"time" 6.700000000000003e-08
"VD:p" -6.178174512755895e-05
"net1" 1.452420317078937e-03
"net_vg" 1.500000000000000e+00
"net_vs" 0.000000000000000e+00
"net_vd" 5.025000000000002e-01
"VG:p" 3.487676202390453e-09
"VS:p" 6.177405708516679e-05
"time" 6.800000000000003e-08
"VD:p" -6.309549292536420e-05
"net1" 1.483344986120749e-03
"net_vg" 1.500000000000000e+00
"net_vs" 0.000000000000000e+00
"net_vd" 5.100000000000001e-01
"VG:p" 3.537799075459267e-09
"VS:p" 6.308769443602390e-05
"time" 6.900000000000002e-08
"VD:p" -6.442819756269900e-05
"net1" 1.514717486381506e-03
"net_vg" 1.500000000000000e+00
"net_vs" 0.000000000000000e+00
"net_vd" 5.175000000000001e-01
"VG:p" 3.589366579479863e-09
"VS:p" 6.442028548160402e-05
"time" 7.000000000000002e-08
"VD:p" -6.578025591337755e-05
"net1" 1.546547274214352e-03
"net_vg" 1.500000000000000e+00
"net_vs" 0.000000000000000e+00
"net_vd" 5.250000000000001e-01
"VG:p" 3.641635644134045e-09
"VS:p" 6.577222865971721e-05
"time" 7.100000000000001e-08
"VD:p" -6.715207045782844e-05
"net1" 1.578843857644070e-03
"net_vg" 1.500000000000000e+00
"net_vs" 0.000000000000000e+00
"net_vd" 5.325000000000001e-01
"VG:p" 3.695360977805492e-09
